
SetupTitle, Id-Vds var const Vbgs
PrimitiveTest, Multi Channel I/V Sweep
TestParameter, Context.MainFrame, B2902A
TestParameter, Channel.UnitType, SMU, SMU
TestParameter, Channel.Unit, SMU1:B290X, SMU2:B290X
TestParameter, Channel.IName, Ibg, Id
TestParameter, Channel.VName, Vbgs, Vds
TestParameter, Channel.Mode, V, V
TestParameter, Channel.Func, VAR2, VAR1
TestParameter, Channel.Index, 
TestParameter, Channel.Time, 
TestParameter, Measurement.Port.Unit, SMU1:B290X, SMU2:B290X
TestParameter, Measurement.Port.SeriesResistor, NONE, NONE
TestParameter, Measurement.Port.Filter, ON, ON
TestParameter, Measurement.Port.LowState, GROUNDED, GROUNDED
TestParameter, Measurement.Port.HighCapacitance, OFF, OFF
TestParameter, Measurement.Primary.Start, -5
TestParameter, Measurement.Primary.Stop, 5
TestParameter, Measurement.Primary.Compliance, 0.005
TestParameter, Measurement.Primary.PowerCompliance, 0
TestParameter, Measurement.Primary.Locus, Single
TestParameter, Measurement.Primary.Scale, LINEAR
TestParameter, Measurement.Primary.Count, 101
TestParameter, Measurement.Aborting.Condition, CONTINUE AT ANY
TestParameter, Measurement.PostOutput.Value, START
TestParameter, Measurement.PostOutput.Retention, OFF
TestParameter, Measurement.Secondary.Start, -5
TestParameter, Measurement.Secondary.Count, 11
TestParameter, Measurement.Secondary.Step, 1
TestParameter, Measurement.Secondary.Compliance, 0.005
TestParameter, Measurement.Secondary.PowerCompliance, 0
TestParameter, Measurement.Bias.Source, -5, -5
TestParameter, Measurement.Bias.Compliance, 0.099999999999999992, 0.099999999999999992
TestParameter, Measurement.Pulse.Period, 0.005
TestParameter, Measurement.Pulse.MeasurementDelay, 0
TestParameter, Measurement.Pulse.AveragingCount, 1
TestParameter, Measurement.Monitor.Unit, SMU1:B290X, SMU2:B290X
TestParameter, Measurement.Monitor.Adc, HS ADC, HS ADC
TestParameter, Measurement.Monitor.RangingMode, LIMITED, LIMITED
TestParameter, Measurement.Monitor.RangeBoundary, 1mA, 1mA
TestParameter, Measurement.Monitor.RangeRating, BY FULL RANGE, BY FULL RANGE
TestParameter, Measurement.Monitor.RangeRatingCoeff, 90, 90
TestParameter, Measurement.Timing.Hold, 0
TestParameter, Measurement.Timing.Delay, 0
TestParameter, Measurement.Adc.HighSpeed.Mode, AUTO
TestParameter, Measurement.Adc.HighSpeed.Coeff, 1
TestParameter, Measurement.WaitTime.Source.Coeff, 1
TestParameter, Measurement.WaitTime.Source.Offset, 0
TestParameter, Measurement.WaitTime.Source.State, ON
TestParameter, Measurement.WaitTime.Monitor.Coeff, 1
TestParameter, Measurement.WaitTime.Monitor.Offset, 0
TestParameter, Measurement.WaitTime.Monitor.State, ON
TestParameter, Measurement.Ag16440ASelector.SemiconductorRelay.Channel1, DEFAULT
TestParameter, Measurement.Ag16440ASelector.SemiconductorRelay.Channel3, DEFAULT
TestParameter, Output.Graph.Enabled, true
TestParameter, Output.Graph.AutoScaling, false
TestParameter, Output.Graph.XAxis.Data, Vds
TestParameter, Output.Graph.XAxis.Scale, Linear
TestParameter, Output.Graph.XAxis.Left, -5
TestParameter, Output.Graph.XAxis.Right, 5
TestParameter, Output.Graph.XAxis.RunTimeAutoScale, false
TestParameter, Output.Graph.YAxis.Data, Id
TestParameter, Output.Graph.YAxis.Scale, Linear
TestParameter, Output.Graph.YAxis.Bottom, -0.005
TestParameter, Output.Graph.YAxis.Top, 0.005
TestParameter, Output.Graph.YAxis.Group, 
TestParameter, Output.Graph.YAxis.RunTimeAutoScale, true
TestParameter, AutoAnalysis.Interpolation, false
TestParameter, AutoAnalysis.Line1.Enabled, false
TestParameter, AutoAnalysis.Line1.Type, 1
TestParameter, AutoAnalysis.Line1.Fix, True
TestParameter, AutoAnalysis.Line1.YAxis, 0
TestParameter, AutoAnalysis.Line1.Point1.Type, 0
TestParameter, AutoAnalysis.Line1.Point1.XY.X, 
TestParameter, AutoAnalysis.Line1.Point1.XY.Y, 
TestParameter, AutoAnalysis.Line1.Point1.Data.Var, 
TestParameter, AutoAnalysis.Line1.Point1.Data.Condition, 
TestParameter, AutoAnalysis.Line1.Point1.Data.Start, false
TestParameter, AutoAnalysis.Line1.Point1.Data.StartVar, 
TestParameter, AutoAnalysis.Line1.Point1.Data.StartCondition, 
TestParameter, AutoAnalysis.Line1.Point2.Type, 0
TestParameter, AutoAnalysis.Line1.Point2.XY.X, 
TestParameter, AutoAnalysis.Line1.Point2.XY.Y, 
TestParameter, AutoAnalysis.Line1.Point2.Data.Var, 
TestParameter, AutoAnalysis.Line1.Point2.Data.Condition, 
TestParameter, AutoAnalysis.Line1.Point2.Data.Start, false
TestParameter, AutoAnalysis.Line1.Point2.Data.StartVar, 
TestParameter, AutoAnalysis.Line1.Point2.Data.StartCondition, 
TestParameter, AutoAnalysis.Line1.GradientExpr, 0
TestParameter, AutoAnalysis.Line2.Enabled, false
TestParameter, AutoAnalysis.Line2.Type, 1
TestParameter, AutoAnalysis.Line2.Fix, True
TestParameter, AutoAnalysis.Line2.YAxis, 0
TestParameter, AutoAnalysis.Line2.Point1.Type, 0
TestParameter, AutoAnalysis.Line2.Point1.XY.X, 
TestParameter, AutoAnalysis.Line2.Point1.XY.Y, 
TestParameter, AutoAnalysis.Line2.Point1.Data.Var, 
TestParameter, AutoAnalysis.Line2.Point1.Data.Condition, 
TestParameter, AutoAnalysis.Line2.Point1.Data.Start, false
TestParameter, AutoAnalysis.Line2.Point1.Data.StartVar, 
TestParameter, AutoAnalysis.Line2.Point1.Data.StartCondition, 
TestParameter, AutoAnalysis.Line2.Point2.Type, 0
TestParameter, AutoAnalysis.Line2.Point2.XY.X, 
TestParameter, AutoAnalysis.Line2.Point2.XY.Y, 
TestParameter, AutoAnalysis.Line2.Point2.Data.Var, 
TestParameter, AutoAnalysis.Line2.Point2.Data.Condition, 
TestParameter, AutoAnalysis.Line2.Point2.Data.Start, false
TestParameter, AutoAnalysis.Line2.Point2.Data.StartVar, 
TestParameter, AutoAnalysis.Line2.Point2.Data.StartCondition, 
TestParameter, AutoAnalysis.Line2.GradientExpr, 0
TestParameter, AutoAnalysis.Marker.Enabled, false
TestParameter, AutoAnalysis.Marker.Data.Var, 
TestParameter, AutoAnalysis.Marker.Data.Condition, 
TestParameter, AutoAnalysis.Marker.Data.Start, false
TestParameter, AutoAnalysis.Marker.Data.StartVar, 
TestParameter, AutoAnalysis.Marker.Data.StartCondition, 
MetaData, TestRecord.EntryPoint, true
MetaData, TestRecord.RecordTime, 07/21/2023 17:44:43
MetaData, TestRecord.TestTarget, 
MetaData, TestRecord.IterationIndex, 1
MetaData, TestRecord.Preservation, true
MetaData, TestRecord.Flag, 
MetaData, TestRecord.Remarks, 
MetaData, TestRecord.LinkKey, 13b2b988-5fd3-42e9-aacf-ffd6af5f2bde
Dimension1, 101, 101
Dimension2, 11, 11
DataName, Vds, Id
DataValue, -5, -0.0015447100000000001
DataValue, -4.9, -0.00151078
DataValue, -4.8000000000000007, -0.00147768
DataValue, -4.7, -0.00144575
DataValue, -4.6000000000000005, -0.00141487
DataValue, -4.5, -0.0013852
DataValue, -4.4, -0.00135637
DataValue, -4.3000000000000007, -0.0013288500000000001
DataValue, -4.2, -0.00130208
DataValue, -4.1000000000000005, -0.0012764200000000001
DataValue, -4, -0.00125169
DataValue, -3.9000000000000004, -0.00122783
DataValue, -3.8000000000000003, -0.00120497
DataValue, -3.7, -0.0011830200000000001
DataValue, -3.6, -0.00116156
DataValue, -3.5000000000000004, -0.00114107
DataValue, -3.4000000000000004, -0.00112133
DataValue, -3.3000000000000003, -0.0011016
DataValue, -3.2, -0.00108236
DataValue, -3.1, -0.0010633700000000001
DataValue, -3.0000000000000004, -0.00104434
DataValue, -2.9000000000000004, -0.0010255
DataValue, -2.8000000000000003, -0.0010064
DataValue, -2.7, -0.00098723
DataValue, -2.6, -0.00096771
DataValue, -2.5, -0.00094749
DataValue, -2.4000000000000004, -0.00092683
DataValue, -2.3000000000000003, -0.00090516
DataValue, -2.2, -0.00088211600000000006
DataValue, -2.1, -0.0008578870000000001
DataValue, -2, -0.00083229700000000007
DataValue, -1.9, -0.000805303
DataValue, -1.7999999999999998, -0.000776808
DataValue, -1.7, -0.00074671300000000009
DataValue, -1.5999999999999999, -0.000714958
DataValue, -1.5, -0.00068146200000000008
DataValue, -1.4, -0.000646262
DataValue, -1.3, -0.000609403
DataValue, -1.2, -0.000570906
DataValue, -1.0999999999999999, -0.000530755
DataValue, -1, -0.000489078
DataValue, -0.89999999999999991, -0.000445901
DataValue, -0.79999999999999993, -0.000401308
DataValue, -0.7, -0.000355296
DataValue, -0.6, -0.00030809100000000003
DataValue, -0.5, -0.000259543
DataValue, -0.39999999999999997, -0.000209866
DataValue, -0.3, -0.000159073
DataValue, -0.19999999999999998, -0.00010720400000000001
DataValue, -0.099999999999999992, -5.4308E-05
DataValue, 0, -3.85E-07
DataValue, 0.099999999999999992, 5.4559000000000004E-05
DataValue, 0.19999999999999998, 0.00011049200000000001
DataValue, 0.3, 0.000167526
DataValue, 0.39999999999999997, 0.000225643
DataValue, 0.5, 0.000284994
DataValue, 0.6, 0.000345721
DataValue, 0.7, 0.000407867
DataValue, 0.79999999999999993, 0.000471613
DataValue, 0.89999999999999991, 0.000537107
DataValue, 1, 0.000604177
DataValue, 1.0999999999999999, 0.000673209
DataValue, 1.2, 0.000743887
DataValue, 1.3, 0.000816339
DataValue, 1.4, 0.000890432
DataValue, 1.5, 0.000965909
DataValue, 1.5999999999999999, 0.0010433200000000001
DataValue, 1.7, 0.0011216
DataValue, 1.7999999999999998, 0.00120207
DataValue, 1.9, 0.00128395
DataValue, 2, 0.00136754
DataValue, 2.1, 0.00145215
DataValue, 2.2, 0.00153846
DataValue, 2.3000000000000003, 0.00162596
DataValue, 2.4000000000000004, 0.00171467
DataValue, 2.5, 0.00180495
DataValue, 2.6, 0.00189634
DataValue, 2.7, 0.0019889
DataValue, 2.8000000000000003, 0.00208299
DataValue, 2.9000000000000004, 0.00217782
DataValue, 3.0000000000000004, 0.002274
DataValue, 3.1, 0.00237128
DataValue, 3.2, 0.00246951
DataValue, 3.3000000000000003, 0.0025693400000000003
DataValue, 3.4000000000000004, 0.00267034
DataValue, 3.5000000000000004, 0.002772
DataValue, 3.6, 0.00287548
DataValue, 3.7, 0.00297949
DataValue, 3.8000000000000003, 0.00308414
DataValue, 3.9000000000000004, 0.00318994
DataValue, 4, 0.00329635
DataValue, 4.1000000000000005, 0.00340487
DataValue, 4.2, 0.0035131
DataValue, 4.3000000000000007, 0.0036223
DataValue, 4.4, 0.00373309
DataValue, 4.5, 0.00384456
DataValue, 4.6000000000000005, 0.00395686
DataValue, 4.7, 0.0040704700000000005
DataValue, 4.8000000000000007, 0.00418328
DataValue, 4.9, 0.00429735
DataValue, 5, 0.00441218
DataValue, -5, -0.00149325
DataValue, -4.9, -0.0014555500000000001
DataValue, -4.8000000000000007, -0.00141912
DataValue, -4.7, -0.00138355
DataValue, -4.6000000000000005, -0.00134923
DataValue, -4.5, -0.00131603
DataValue, -4.4, -0.00128367
DataValue, -4.3000000000000007, -0.00125235
DataValue, -4.2, -0.0012219
DataValue, -4.1000000000000005, -0.00119238
DataValue, -4, -0.00116393
DataValue, -3.9000000000000004, -0.0011363
DataValue, -3.8000000000000003, -0.0011097
DataValue, -3.7, -0.0010838900000000001
DataValue, -3.6, -0.00105913
DataValue, -3.5000000000000004, -0.00103556
DataValue, -3.4000000000000004, -0.00101252
DataValue, -3.3000000000000003, -0.00099029
DataValue, -3.2, -0.00096882
DataValue, -3.1, -0.00094805
DataValue, -3.0000000000000004, -0.00092776
DataValue, -2.9000000000000004, -0.00090797
DataValue, -2.8000000000000003, -0.00088837700000000009
DataValue, -2.7, -0.000868947
DataValue, -2.6, -0.00084971
DataValue, -2.5, -0.0008304810000000001
DataValue, -2.4000000000000004, -0.000811112
DataValue, -2.3000000000000003, -0.00079161400000000005
DataValue, -2.2, -0.00077159700000000006
DataValue, -2.1, -0.000751061
DataValue, -2, -0.000729749
DataValue, -1.9, -0.000707664
DataValue, -1.7999999999999998, -0.000684453
DataValue, -1.7, -0.00066006700000000008
DataValue, -1.5999999999999999, -0.00063428500000000006
DataValue, -1.5, -0.00060701100000000007
DataValue, -1.4, -0.000578143
DataValue, -1.3, -0.00054768
DataValue, -1.2, -0.000515392
DataValue, -1.0999999999999999, -0.000481357
DataValue, -1, -0.000445571
DataValue, -0.89999999999999991, -0.00040810600000000004
DataValue, -0.79999999999999993, -0.000368924
DataValue, -0.7, -0.00032808100000000003
DataValue, -0.6, -0.000285684
DataValue, -0.5, -0.00024171000000000002
DataValue, -0.39999999999999997, -0.000196199
DataValue, -0.3, -0.00014925000000000002
DataValue, -0.19999999999999998, -0.00010092900000000001
DataValue, -0.099999999999999992, -5.1286E-05
DataValue, 0, -3.39E-07
DataValue, 0.099999999999999992, 5.1825000000000006E-05
DataValue, 0.19999999999999998, 0.00010515700000000001
DataValue, 0.3, 0.000159709
DataValue, 0.39999999999999997, 0.000215428
DataValue, 0.5, 0.000272435
DataValue, 0.6, 0.000330859
DataValue, 0.7, 0.00039043600000000003
DataValue, 0.79999999999999993, 0.00045156300000000004
DataValue, 0.89999999999999991, 0.000514358
DataValue, 1, 0.000578788
DataValue, 1.0999999999999999, 0.000644935
DataValue, 1.2, 0.000712893
DataValue, 1.3, 0.00078242300000000008
DataValue, 1.4, 0.00085373500000000011
DataValue, 1.5, 0.00092658700000000009
DataValue, 1.5999999999999999, 0.001001058
DataValue, 1.7, 0.0010766
DataValue, 1.7999999999999998, 0.0011542500000000001
DataValue, 1.9, 0.00123344
DataValue, 2, 0.00131373
DataValue, 2.1, 0.0013958
DataValue, 2.2, 0.0014791700000000001
DataValue, 2.3000000000000003, 0.00156404
DataValue, 2.4000000000000004, 0.00165009
DataValue, 2.5, 0.00173743
DataValue, 2.6, 0.00182595
DataValue, 2.7, 0.0019158600000000001
DataValue, 2.8000000000000003, 0.00200686
DataValue, 2.9000000000000004, 0.00209913
DataValue, 3.0000000000000004, 0.00219264
DataValue, 3.1, 0.00228705
DataValue, 3.2, 0.0023829
DataValue, 3.3000000000000003, 0.00247955
DataValue, 3.4000000000000004, 0.00257758
DataValue, 3.5000000000000004, 0.00267622
DataValue, 3.6, 0.00277569
DataValue, 3.7, 0.0028768
DataValue, 3.8000000000000003, 0.00297889
DataValue, 3.9000000000000004, 0.003082
DataValue, 4, 0.00318597
DataValue, 4.1000000000000005, 0.00329086
DataValue, 4.2, 0.0033967
DataValue, 4.3000000000000007, 0.00350316
DataValue, 4.4, 0.00361055
DataValue, 4.5, 0.0037188200000000003
DataValue, 4.6000000000000005, 0.00382805
DataValue, 4.7, 0.00393855
DataValue, 4.8000000000000007, 0.00405035
DataValue, 4.9, 0.00416196
DataValue, 5, 0.00427441
DataValue, -5, -0.00146843
DataValue, -4.9, -0.00142833
DataValue, -4.8000000000000007, -0.00138919
DataValue, -4.7, -0.00135122
DataValue, -4.6000000000000005, -0.00131436
DataValue, -4.5, -0.0012786
DataValue, -4.4, -0.00124369
DataValue, -4.3000000000000007, -0.00120977
DataValue, -4.2, -0.00117687
DataValue, -4.1000000000000005, -0.0011450100000000001
DataValue, -4, -0.00111385
DataValue, -3.9000000000000004, -0.00108384
DataValue, -3.8000000000000003, -0.00105456
DataValue, -3.7, -0.00102613
DataValue, -3.6, -0.00099843
DataValue, -3.5000000000000004, -0.00097175000000000007
DataValue, -3.4000000000000004, -0.00094573
DataValue, -3.3000000000000003, -0.00092032
DataValue, -3.2, -0.0008956630000000001
DataValue, -3.1, -0.000871641
DataValue, -3.0000000000000004, -0.000848545
DataValue, -2.9000000000000004, -0.00082621200000000011
DataValue, -2.8000000000000003, -0.000804503
DataValue, -2.7, -0.000783447
DataValue, -2.6, -0.000762925
DataValue, -2.5, -0.000742797
DataValue, -2.4000000000000004, -0.00072304500000000007
DataValue, -2.3000000000000003, -0.000703528
DataValue, -2.2, -0.000684073
DataValue, -2.1, -0.000664602
DataValue, -2, -0.00064495300000000008
DataValue, -1.9, -0.000624958
DataValue, -1.7999999999999998, -0.00060433300000000008
DataValue, -1.7, -0.00058319
DataValue, -1.5999999999999999, -0.000561112
DataValue, -1.5, -0.000538072
DataValue, -1.4, -0.000513806
DataValue, -1.3, -0.000488188
DataValue, -1.2, -0.000461039
DataValue, -1.0999999999999999, -0.00043227200000000004
DataValue, -1, -0.000401794
DataValue, -0.89999999999999991, -0.00036950700000000004
DataValue, -0.79999999999999993, -0.00033544
DataValue, -0.7, -0.000299513
DataValue, -0.6, -0.000261878
DataValue, -0.5, -0.000222427
DataValue, -0.39999999999999997, -0.00018123500000000002
DataValue, -0.3, -0.000138364
DataValue, -0.19999999999999998, -9.3891E-05
DataValue, -0.099999999999999992, -4.7860000000000006E-05
DataValue, 0, -3.44E-07
DataValue, 0.099999999999999992, 4.8606E-05
DataValue, 0.19999999999999998, 9.8944E-05
DataValue, 0.3, 0.000150647
DataValue, 0.39999999999999997, 0.000203567
DataValue, 0.5, 0.000257825
DataValue, 0.6, 0.00031354500000000003
DataValue, 0.7, 0.00037051300000000005
DataValue, 0.79999999999999993, 0.00042898000000000003
DataValue, 0.89999999999999991, 0.00048885
DataValue, 1, 0.000550321
DataValue, 1.0999999999999999, 0.000613558
DataValue, 1.2, 0.00067845300000000009
DataValue, 1.3, 0.00074506600000000007
DataValue, 1.4, 0.00081334800000000009
DataValue, 1.5, 0.00088329400000000007
DataValue, 1.5999999999999999, 0.000954932
DataValue, 1.7, 0.0010280760000000002
DataValue, 1.7999999999999998, 0.0011027
DataValue, 1.9, 0.00117902
DataValue, 2, 0.00125683
DataValue, 2.1, 0.0013361900000000001
DataValue, 2.2, 0.00141665
DataValue, 2.3000000000000003, 0.00149858
DataValue, 2.4000000000000004, 0.00158182
DataValue, 2.5, 0.00166669
DataValue, 2.6, 0.0017528
DataValue, 2.7, 0.00183983
DataValue, 2.8000000000000003, 0.00192834
DataValue, 2.9000000000000004, 0.0020178600000000002
DataValue, 3.0000000000000004, 0.00210867
DataValue, 3.1, 0.00220061
DataValue, 3.2, 0.0022933800000000002
DataValue, 3.3000000000000003, 0.00238745
DataValue, 3.4000000000000004, 0.00248292
DataValue, 3.5000000000000004, 0.0025791
DataValue, 3.6, 0.00267659
DataValue, 3.7, 0.00277487
DataValue, 3.8000000000000003, 0.0028743700000000002
DataValue, 3.9000000000000004, 0.0029744800000000003
DataValue, 4, 0.00307582
DataValue, 4.1000000000000005, 0.00317833
DataValue, 4.2, 0.0032815
DataValue, 4.3000000000000007, 0.00338545
DataValue, 4.4, 0.0034904000000000003
DataValue, 4.5, 0.00359652
DataValue, 4.6000000000000005, 0.0037032000000000002
DataValue, 4.7, 0.003811
DataValue, 4.8000000000000007, 0.00391968
DataValue, 4.9, 0.00402902
DataValue, 5, 0.00413942
DataValue, -5, -0.0014696800000000001
DataValue, -4.9, -0.00142731
DataValue, -4.8000000000000007, -0.00138573
DataValue, -4.7, -0.00134524
DataValue, -4.6000000000000005, -0.00130561
DataValue, -4.5, -0.00126671
DataValue, -4.4, -0.00122875
DataValue, -4.3000000000000007, -0.00119166
DataValue, -4.2, -0.00115553
DataValue, -4.1000000000000005, -0.00112045
DataValue, -4, -0.00108615
DataValue, -3.9000000000000004, -0.00105296
DataValue, -3.8000000000000003, -0.00102081
DataValue, -3.7, -0.00098952
DataValue, -3.6, -0.00095934
DataValue, -3.5000000000000004, -0.00092996
DataValue, -3.4000000000000004, -0.000901207
DataValue, -3.3000000000000003, -0.000873643
DataValue, -3.2, -0.000846769
DataValue, -3.1, -0.000820566
DataValue, -3.0000000000000004, -0.000795345
DataValue, -2.9000000000000004, -0.00077091700000000009
DataValue, -2.8000000000000003, -0.000747193
DataValue, -2.7, -0.00072417
DataValue, -2.6, -0.000701669
DataValue, -2.5, -0.00067988
DataValue, -2.4000000000000004, -0.000658492
DataValue, -2.3000000000000003, -0.00063762500000000006
DataValue, -2.2, -0.00061716100000000008
DataValue, -2.1, -0.00059708800000000007
DataValue, -2, -0.00057707200000000009
DataValue, -1.9, -0.000557154
DataValue, -1.7999999999999998, -0.000537217
DataValue, -1.7, -0.00051715700000000008
DataValue, -1.5999999999999999, -0.00049675
DataValue, -1.5, -0.000475917
DataValue, -1.4, -0.000454261
DataValue, -1.3, -0.00043183200000000005
DataValue, -1.2, -0.000408376
DataValue, -1.0999999999999999, -0.00038365100000000004
DataValue, -1, -0.00035749500000000005
DataValue, -0.89999999999999991, -0.00032988200000000004
DataValue, -0.79999999999999993, -0.000300583
DataValue, -0.7, -0.000269525
DataValue, -0.6, -0.000236638
DataValue, -0.5, -0.00020186700000000002
DataValue, -0.39999999999999997, -0.000165171
DataValue, -0.3, -0.000126661
DataValue, -0.19999999999999998, -8.6316E-05
