
SetupTitle, Id-Vds var const Vtgs
PrimitiveTest, Multi Channel I/V Sweep
TestParameter, Context.MainFrame, B2902A
TestParameter, Channel.UnitType, SMU, SMU
TestParameter, Channel.Unit, SMU1:B290X, SMU2:B290X
TestParameter, Channel.IName, Itg, Id
TestParameter, Channel.VName, Vtgs, Vds
TestParameter, Channel.Mode, V, V
TestParameter, Channel.Func, VAR2, VAR1
TestParameter, Channel.Index, 
TestParameter, Channel.Time, 
TestParameter, Measurement.Port.Unit, SMU1:B290X, SMU2:B290X
TestParameter, Measurement.Port.SeriesResistor, NONE, NONE
TestParameter, Measurement.Port.Filter, ON, ON
TestParameter, Measurement.Port.LowState, GROUNDED, GROUNDED
TestParameter, Measurement.Port.HighCapacitance, OFF, OFF
TestParameter, Measurement.Primary.Start, -5
TestParameter, Measurement.Primary.Stop, 5
TestParameter, Measurement.Primary.Compliance, 0.005
TestParameter, Measurement.Primary.PowerCompliance, 0
TestParameter, Measurement.Primary.Locus, Single
TestParameter, Measurement.Primary.Scale, LINEAR
TestParameter, Measurement.Primary.Count, 101
TestParameter, Measurement.Aborting.Condition, CONTINUE AT ANY
TestParameter, Measurement.PostOutput.Value, START
TestParameter, Measurement.PostOutput.Retention, OFF
TestParameter, Measurement.Secondary.Start, -5
TestParameter, Measurement.Secondary.Count, 11
TestParameter, Measurement.Secondary.Step, 1
TestParameter, Measurement.Secondary.Compliance, 0.005
TestParameter, Measurement.Secondary.PowerCompliance, 0
TestParameter, Measurement.Bias.Source, -5, -5
TestParameter, Measurement.Bias.Compliance, 0.099999999999999992, 0.099999999999999992
TestParameter, Measurement.Pulse.Period, 0.005
TestParameter, Measurement.Pulse.MeasurementDelay, 0
TestParameter, Measurement.Pulse.AveragingCount, 1
TestParameter, Measurement.Monitor.Unit, SMU1:B290X, SMU2:B290X
TestParameter, Measurement.Monitor.Adc, HS ADC, HS ADC
TestParameter, Measurement.Monitor.RangingMode, LIMITED, LIMITED
TestParameter, Measurement.Monitor.RangeBoundary, 1mA, 1mA
TestParameter, Measurement.Monitor.RangeRating, BY FULL RANGE, BY FULL RANGE
TestParameter, Measurement.Monitor.RangeRatingCoeff, 90, 90
TestParameter, Measurement.Timing.Hold, 0
TestParameter, Measurement.Timing.Delay, 0
TestParameter, Measurement.Adc.HighSpeed.Mode, AUTO
TestParameter, Measurement.Adc.HighSpeed.Coeff, 1
TestParameter, Measurement.WaitTime.Source.Coeff, 1
TestParameter, Measurement.WaitTime.Source.Offset, 0
TestParameter, Measurement.WaitTime.Source.State, ON
TestParameter, Measurement.WaitTime.Monitor.Coeff, 1
TestParameter, Measurement.WaitTime.Monitor.Offset, 0
TestParameter, Measurement.WaitTime.Monitor.State, ON
TestParameter, Measurement.Ag16440ASelector.SemiconductorRelay.Channel1, DEFAULT
TestParameter, Measurement.Ag16440ASelector.SemiconductorRelay.Channel3, DEFAULT
TestParameter, Output.Graph.Enabled, true
TestParameter, Output.Graph.AutoScaling, false
TestParameter, Output.Graph.XAxis.Data, Vds
TestParameter, Output.Graph.XAxis.Scale, Linear
TestParameter, Output.Graph.XAxis.Left, -5
TestParameter, Output.Graph.XAxis.Right, 5
TestParameter, Output.Graph.XAxis.RunTimeAutoScale, false
TestParameter, Output.Graph.YAxis.Data, Id
TestParameter, Output.Graph.YAxis.Scale, Linear
TestParameter, Output.Graph.YAxis.Bottom, -0.005
TestParameter, Output.Graph.YAxis.Top, 0.005
TestParameter, Output.Graph.YAxis.Group, 
TestParameter, Output.Graph.YAxis.RunTimeAutoScale, true
TestParameter, AutoAnalysis.Interpolation, false
TestParameter, AutoAnalysis.Line1.Enabled, false
TestParameter, AutoAnalysis.Line1.Type, 1
TestParameter, AutoAnalysis.Line1.Fix, True
TestParameter, AutoAnalysis.Line1.YAxis, 0
TestParameter, AutoAnalysis.Line1.Point1.Type, 0
TestParameter, AutoAnalysis.Line1.Point1.XY.X, 
TestParameter, AutoAnalysis.Line1.Point1.XY.Y, 
TestParameter, AutoAnalysis.Line1.Point1.Data.Var, 
TestParameter, AutoAnalysis.Line1.Point1.Data.Condition, 
TestParameter, AutoAnalysis.Line1.Point1.Data.Start, false
TestParameter, AutoAnalysis.Line1.Point1.Data.StartVar, 
TestParameter, AutoAnalysis.Line1.Point1.Data.StartCondition, 
TestParameter, AutoAnalysis.Line1.Point2.Type, 0
TestParameter, AutoAnalysis.Line1.Point2.XY.X, 
TestParameter, AutoAnalysis.Line1.Point2.XY.Y, 
TestParameter, AutoAnalysis.Line1.Point2.Data.Var, 
TestParameter, AutoAnalysis.Line1.Point2.Data.Condition, 
TestParameter, AutoAnalysis.Line1.Point2.Data.Start, false
TestParameter, AutoAnalysis.Line1.Point2.Data.StartVar, 
TestParameter, AutoAnalysis.Line1.Point2.Data.StartCondition, 
TestParameter, AutoAnalysis.Line1.GradientExpr, 0
TestParameter, AutoAnalysis.Line2.Enabled, false
TestParameter, AutoAnalysis.Line2.Type, 1
TestParameter, AutoAnalysis.Line2.Fix, True
TestParameter, AutoAnalysis.Line2.YAxis, 0
TestParameter, AutoAnalysis.Line2.Point1.Type, 0
TestParameter, AutoAnalysis.Line2.Point1.XY.X, 
TestParameter, AutoAnalysis.Line2.Point1.XY.Y, 
TestParameter, AutoAnalysis.Line2.Point1.Data.Var, 
TestParameter, AutoAnalysis.Line2.Point1.Data.Condition, 
TestParameter, AutoAnalysis.Line2.Point1.Data.Start, false
TestParameter, AutoAnalysis.Line2.Point1.Data.StartVar, 
TestParameter, AutoAnalysis.Line2.Point1.Data.StartCondition, 
TestParameter, AutoAnalysis.Line2.Point2.Type, 0
TestParameter, AutoAnalysis.Line2.Point2.XY.X, 
TestParameter, AutoAnalysis.Line2.Point2.XY.Y, 
TestParameter, AutoAnalysis.Line2.Point2.Data.Var, 
TestParameter, AutoAnalysis.Line2.Point2.Data.Condition, 
TestParameter, AutoAnalysis.Line2.Point2.Data.Start, false
TestParameter, AutoAnalysis.Line2.Point2.Data.StartVar, 
TestParameter, AutoAnalysis.Line2.Point2.Data.StartCondition, 
TestParameter, AutoAnalysis.Line2.GradientExpr, 0
TestParameter, AutoAnalysis.Marker.Enabled, false
TestParameter, AutoAnalysis.Marker.Data.Var, 
TestParameter, AutoAnalysis.Marker.Data.Condition, 
TestParameter, AutoAnalysis.Marker.Data.Start, false
TestParameter, AutoAnalysis.Marker.Data.StartVar, 
TestParameter, AutoAnalysis.Marker.Data.StartCondition, 
MetaData, TestRecord.EntryPoint, true
MetaData, TestRecord.RecordTime, 07/21/2023 17:46:47
MetaData, TestRecord.TestTarget, 
MetaData, TestRecord.IterationIndex, 1
MetaData, TestRecord.Preservation, true
MetaData, TestRecord.Flag, 
MetaData, TestRecord.Remarks, 
MetaData, TestRecord.LinkKey, 41790ddb-40f3-4231-b86b-5873a4ce6168
Dimension1, 101, 101
Dimension2, 11, 11
DataName, Vds, Id
DataValue, -5, -0.0026683
DataValue, -4.9, -0.00263637
DataValue, -4.8000000000000007, -0.00260327
DataValue, -4.7, -0.00256972
DataValue, -4.6000000000000005, -0.0025338500000000003
DataValue, -4.5, -0.00249714
DataValue, -4.4, -0.00245938
DataValue, -4.3000000000000007, -0.00242048
DataValue, -4.2, -0.0023806
DataValue, -4.1000000000000005, -0.00233973
DataValue, -4, -0.00229743
DataValue, -3.9000000000000004, -0.00225426
DataValue, -3.8000000000000003, -0.00220986
DataValue, -3.7, -0.00216434
DataValue, -3.6, -0.00211798
DataValue, -3.5000000000000004, -0.00207083
DataValue, -3.4000000000000004, -0.00202281
DataValue, -3.3000000000000003, -0.0019736
DataValue, -3.2, -0.00192344
DataValue, -3.1, -0.00187244
DataValue, -3.0000000000000004, -0.00182068
DataValue, -2.9000000000000004, -0.0017680600000000001
DataValue, -2.8000000000000003, -0.0017148
DataValue, -2.7, -0.00166085
DataValue, -2.6, -0.0016068
DataValue, -2.5, -0.0015518300000000001
DataValue, -2.4000000000000004, -0.00149642
DataValue, -2.3000000000000003, -0.00144022
DataValue, -2.2, -0.0013838400000000001
DataValue, -2.1, -0.00132694
DataValue, -2, -0.00126963
DataValue, -1.9, -0.00121195
DataValue, -1.7999999999999998, -0.00115357
DataValue, -1.7, -0.00109494
DataValue, -1.5999999999999999, -0.00103553
DataValue, -1.5, -0.00097577
DataValue, -1.4, -0.00091544
DataValue, -1.3, -0.00085381000000000009
DataValue, -1.2, -0.000792178
DataValue, -1.0999999999999999, -0.000729668
DataValue, -1, -0.000666529
DataValue, -0.89999999999999991, -0.00060252800000000007
DataValue, -0.79999999999999993, -0.000537912
DataValue, -0.7, -0.00047252800000000005
DataValue, -0.6, -0.00040666400000000005
DataValue, -0.5, -0.000340099
DataValue, -0.39999999999999997, -0.000273044
DataValue, -0.3, -0.00020547500000000002
DataValue, -0.19999999999999998, -0.00013746800000000002
DataValue, -0.099999999999999992, -6.9132E-05
DataValue, 0, -4.7600000000000003E-07
DataValue, 0.099999999999999992, 6.8469E-05
DataValue, 0.19999999999999998, 0.000137579
DataValue, 0.3, 0.00020686800000000003
DataValue, 0.39999999999999997, 0.000276191
DataValue, 0.5, 0.000345638
DataValue, 0.6, 0.000415148
DataValue, 0.7, 0.00048484900000000003
DataValue, 0.79999999999999993, 0.000554725
DataValue, 0.89999999999999991, 0.00062510600000000006
DataValue, 1, 0.00069615600000000008
DataValue, 1.0999999999999999, 0.00076815
DataValue, 1.2, 0.000841397
DataValue, 1.3, 0.00091593
DataValue, 1.4, 0.000991588
DataValue, 1.5, 0.00106824
DataValue, 1.5999999999999999, 0.00114678
DataValue, 1.7, 0.0012269100000000001
DataValue, 1.7999999999999998, 0.00130801
DataValue, 1.9, 0.00139105
DataValue, 2, 0.00147403
DataValue, 2.1, 0.00155838
DataValue, 2.2, 0.001643
DataValue, 2.3000000000000003, 0.00172964
DataValue, 2.4000000000000004, 0.0018171300000000001
DataValue, 2.5, 0.00190605
DataValue, 2.6, 0.0019955
DataValue, 2.7, 0.0020860600000000003
DataValue, 2.8000000000000003, 0.00217741
DataValue, 2.9000000000000004, 0.00226974
DataValue, 3.0000000000000004, 0.00236301
DataValue, 3.1, 0.0024574
DataValue, 3.2, 0.00255219
DataValue, 3.3000000000000003, 0.00264814
DataValue, 3.4000000000000004, 0.0027449
DataValue, 3.5000000000000004, 0.00284225
DataValue, 3.6, 0.00294105
DataValue, 3.7, 0.00304003
DataValue, 3.8000000000000003, 0.0031398800000000003
DataValue, 3.9000000000000004, 0.00324079
DataValue, 4, 0.00334205
DataValue, 4.1000000000000005, 0.00344416
DataValue, 4.2, 0.0035461900000000003
DataValue, 4.3000000000000007, 0.0036493800000000002
DataValue, 4.4, 0.00375364
DataValue, 4.5, 0.00385872
DataValue, 4.6000000000000005, 0.00396435
DataValue, 4.7, 0.00407055
DataValue, 4.8000000000000007, 0.00417796
DataValue, 4.9, 0.0042859000000000005
DataValue, 5, 0.00439433
DataValue, -5, -0.00217308
DataValue, -4.9, -0.00215528
DataValue, -4.8000000000000007, -0.0021371
DataValue, -4.7, -0.00211796
DataValue, -4.6000000000000005, -0.00209885
DataValue, -4.5, -0.00207909
DataValue, -4.4, -0.00205826
DataValue, -4.3000000000000007, -0.002037
DataValue, -4.2, -0.00201433
DataValue, -4.1000000000000005, -0.00199057
DataValue, -4, -0.00196544
DataValue, -3.9000000000000004, -0.0019386800000000001
DataValue, -3.8000000000000003, -0.00191101
DataValue, -3.7, -0.00188136
DataValue, -3.6, -0.00185013
DataValue, -3.5000000000000004, -0.0018185
DataValue, -3.4000000000000004, -0.00178419
DataValue, -3.3000000000000003, -0.00174851
DataValue, -3.2, -0.00171147
DataValue, -3.1, -0.00167314
DataValue, -3.0000000000000004, -0.00163332
DataValue, -2.9000000000000004, -0.00159227
DataValue, -2.8000000000000003, -0.00154991
DataValue, -2.7, -0.00150659
DataValue, -2.6, -0.00146208
DataValue, -2.5, -0.00141642
DataValue, -2.4000000000000004, -0.00136998
DataValue, -2.3000000000000003, -0.0013226
DataValue, -2.2, -0.00127429
DataValue, -2.1, -0.001225
DataValue, -2, -0.00117482
DataValue, -1.9, -0.00112401
DataValue, -1.7999999999999998, -0.00107214
DataValue, -1.7, -0.00101946
DataValue, -1.5999999999999999, -0.00096594
DataValue, -1.5, -0.00091165000000000007
DataValue, -1.4, -0.000856306
DataValue, -1.3, -0.00080022900000000007
DataValue, -1.2, -0.000743216
DataValue, -1.0999999999999999, -0.00068543500000000008
DataValue, -1, -0.00062676100000000009
DataValue, -0.89999999999999991, -0.000567219
DataValue, -0.79999999999999993, -0.00050695100000000006
DataValue, -0.7, -0.00044587600000000005
DataValue, -0.6, -0.000384065
DataValue, -0.5, -0.00032161900000000004
DataValue, -0.39999999999999997, -0.000258436
DataValue, -0.3, -0.00019469700000000002
DataValue, -0.19999999999999998, -0.00013041500000000002
DataValue, -0.099999999999999992, -6.5652E-05
DataValue, 0, -4.5300000000000005E-07
DataValue, 0.099999999999999992, 6.5167000000000008E-05
DataValue, 0.19999999999999998, 0.000131158
DataValue, 0.3, 0.00019751300000000002
DataValue, 0.39999999999999997, 0.000264131
DataValue, 0.5, 0.00033106000000000005
DataValue, 0.6, 0.000398274
DataValue, 0.7, 0.00046578500000000003
DataValue, 0.79999999999999993, 0.000533618
DataValue, 0.89999999999999991, 0.000601835
DataValue, 1, 0.000670821
DataValue, 1.0999999999999999, 0.00074099000000000007
DataValue, 1.2, 0.000812062
DataValue, 1.3, 0.000884605
DataValue, 1.4, 0.000958156
DataValue, 1.5, 0.0010332400000000002
DataValue, 1.5999999999999999, 0.0011091
DataValue, 1.7, 0.00118705
DataValue, 1.7999999999999998, 0.00126591
DataValue, 1.9, 0.00134625
DataValue, 2, 0.00142735
DataValue, 2.1, 0.00150939
DataValue, 2.2, 0.00159293
DataValue, 2.3000000000000003, 0.0016769
DataValue, 2.4000000000000004, 0.00176276
DataValue, 2.5, 0.00184939
DataValue, 2.6, 0.00193688
DataValue, 2.7, 0.00202563
DataValue, 2.8000000000000003, 0.00211528
DataValue, 2.9000000000000004, 0.0022058
DataValue, 3.0000000000000004, 0.00229706
DataValue, 3.1, 0.00238964
DataValue, 3.2, 0.00248302
DataValue, 3.3000000000000003, 0.00257738
DataValue, 3.4000000000000004, 0.00267224
DataValue, 3.5000000000000004, 0.00276818
DataValue, 3.6, 0.002865
DataValue, 3.7, 0.00296274
DataValue, 3.8000000000000003, 0.00306068
DataValue, 3.9000000000000004, 0.00315949
DataValue, 4, 0.00325946
DataValue, 4.1000000000000005, 0.0033602000000000003
DataValue, 4.2, 0.00346183
DataValue, 4.3000000000000007, 0.0035642300000000003
DataValue, 4.4, 0.00366724
DataValue, 4.5, 0.00377058
DataValue, 4.6000000000000005, 0.00387496
DataValue, 4.7, 0.00398017
DataValue, 4.8000000000000007, 0.00408571
DataValue, 4.9, 0.00419222
DataValue, 5, 0.00429925
DataValue, -5, -0.00179197
DataValue, -4.9, -0.00176988
DataValue, -4.8000000000000007, -0.00174841
DataValue, -4.7, -0.00172785
DataValue, -4.6000000000000005, -0.00170842
DataValue, -4.5, -0.00168961
DataValue, -4.4, -0.0016721
DataValue, -4.3000000000000007, -0.0016544700000000001
DataValue, -4.2, -0.00163714
DataValue, -4.1000000000000005, -0.00162023
DataValue, -4, -0.0016032
DataValue, -3.9000000000000004, -0.00158598
DataValue, -3.8000000000000003, -0.00156838
DataValue, -3.7, -0.00155061
DataValue, -3.6, -0.00153201
DataValue, -3.5000000000000004, -0.0015132400000000001
DataValue, -3.4000000000000004, -0.00149281
DataValue, -3.3000000000000003, -0.00147128
DataValue, -3.2, -0.00144858
DataValue, -3.1, -0.00142431
DataValue, -3.0000000000000004, -0.0013986
DataValue, -2.9000000000000004, -0.00137136
DataValue, -2.8000000000000003, -0.0013427
DataValue, -2.7, -0.00131243
DataValue, -2.6, -0.00128034
DataValue, -2.5, -0.00124669
DataValue, -2.4000000000000004, -0.00121168
DataValue, -2.3000000000000003, -0.00117505
DataValue, -2.2, -0.00113708
DataValue, -2.1, -0.00109753
DataValue, -2, -0.00105662
DataValue, -1.9, -0.00101469
DataValue, -1.7999999999999998, -0.00097125
DataValue, -1.7, -0.00092662000000000007
DataValue, -1.5999999999999999, -0.000880146
DataValue, -1.5, -0.000832949
DataValue, -1.4, -0.000784525
DataValue, -1.3, -0.000734983
DataValue, -1.2, -0.000684227
DataValue, -1.0999999999999999, -0.000632437
DataValue, -1, -0.00057954900000000006
DataValue, -0.89999999999999991, -0.00052570300000000009
DataValue, -0.79999999999999993, -0.00047080300000000005
DataValue, -0.7, -0.000414918
DataValue, -0.6, -0.000358143
DataValue, -0.5, -0.000300461
DataValue, -0.39999999999999997, -0.000241949
DataValue, -0.3, -0.000182587
DataValue, -0.19999999999999998, -0.000122531
DataValue, -0.099999999999999992, -6.1786000000000008E-05
DataValue, 0, -4.04E-07
DataValue, 0.099999999999999992, 6.156E-05
DataValue, 0.19999999999999998, 0.000124033
DataValue, 0.3, 0.000186951
DataValue, 0.39999999999999997, 0.000250375
DataValue, 0.5, 0.000314239
DataValue, 0.6, 0.00037848300000000004
DataValue, 0.7, 0.000443202
DataValue, 0.79999999999999993, 0.000508449
DataValue, 0.89999999999999991, 0.000574292
DataValue, 1, 0.000640964
DataValue, 1.0999999999999999, 0.000708783
DataValue, 1.2, 0.000777628
DataValue, 1.3, 0.00084763800000000006
DataValue, 1.4, 0.000919131
DataValue, 1.5, 0.00099196400000000013
DataValue, 1.5999999999999999, 0.00106581
DataValue, 1.7, 0.0011408100000000001
DataValue, 1.7999999999999998, 0.00121751
DataValue, 1.9, 0.00129578
DataValue, 2, 0.00137503
DataValue, 2.1, 0.00145524
DataValue, 2.2, 0.00153666
DataValue, 2.3000000000000003, 0.00161924
DataValue, 2.4000000000000004, 0.00170295
DataValue, 2.5, 0.00178755
DataValue, 2.6, 0.0018731
DataValue, 2.7, 0.00195987
DataValue, 2.8000000000000003, 0.00204722
DataValue, 2.9000000000000004, 0.00213568
DataValue, 3.0000000000000004, 0.00222523
DataValue, 3.1, 0.00231583
DataValue, 3.2, 0.00240748
DataValue, 3.3000000000000003, 0.00250034
DataValue, 3.4000000000000004, 0.00259354
DataValue, 3.5000000000000004, 0.00268776
DataValue, 3.6, 0.00278266
DataValue, 3.7, 0.0028785
DataValue, 3.8000000000000003, 0.00297533
DataValue, 3.9000000000000004, 0.00307315
DataValue, 4, 0.00317168
DataValue, 4.1000000000000005, 0.00327143
DataValue, 4.2, 0.00337128
DataValue, 4.3000000000000007, 0.0034721
DataValue, 4.4, 0.0035739500000000002
DataValue, 4.5, 0.0036765500000000002
DataValue, 4.6000000000000005, 0.00377935
DataValue, 4.7, 0.00388319
DataValue, 4.8000000000000007, 0.00398801
DataValue, 4.9, 0.00409276
DataValue, 5, 0.00419814
DataValue, -5, -0.0015638
DataValue, -4.9, -0.00153165
DataValue, -4.8000000000000007, -0.00150004
DataValue, -4.7, -0.00146951
DataValue, -4.6000000000000005, -0.00144024
DataValue, -4.5, -0.00141214
DataValue, -4.4, -0.00138493
DataValue, -4.3000000000000007, -0.00135899
DataValue, -4.2, -0.00133406
DataValue, -4.1000000000000005, -0.0013102
DataValue, -4, -0.00128731
DataValue, -3.9000000000000004, -0.0012654300000000001
DataValue, -3.8000000000000003, -0.00124434
DataValue, -3.7, -0.00122421
DataValue, -3.6, -0.00120473
DataValue, -3.5000000000000004, -0.00118589
DataValue, -3.4000000000000004, -0.0011675400000000001
DataValue, -3.3000000000000003, -0.0011499
DataValue, -3.2, -0.00113217
DataValue, -3.1, -0.00111433
DataValue, -3.0000000000000004, -0.00109646
DataValue, -2.9000000000000004, -0.00107839
DataValue, -2.8000000000000003, -0.00105986
DataValue, -2.7, -0.00104077
DataValue, -2.6, -0.00102082
DataValue, -2.5, -0.00100009
DataValue, -2.4000000000000004, -0.0009783
DataValue, -2.3000000000000003, -0.00095529
DataValue, -2.2, -0.00093102000000000007
DataValue, -2.1, -0.00090506000000000007
DataValue, -2, -0.00087707600000000007
DataValue, -1.9, -0.00084783900000000008
DataValue, -1.7999999999999998, -0.000816924
DataValue, -1.7, -0.00078423300000000007
DataValue, -1.5999999999999999, -0.000749891
DataValue, -1.5, -0.00071398400000000008
DataValue, -1.4, -0.000676385
DataValue, -1.3, -0.000637149
DataValue, -1.2, -0.00059618600000000007
DataValue, -1.0999999999999999, -0.00055371400000000007
DataValue, -1, -0.000509793
DataValue, -0.89999999999999991, -0.00046443200000000003
DataValue, -0.79999999999999993, -0.000417807
DataValue, -0.7, -0.00036977500000000003
DataValue, -0.6, -0.00032043800000000004
DataValue, -0.5, -0.000269818
DataValue, -0.39999999999999997, -0.00021806800000000003
DataValue, -0.3, -0.00016515300000000002
DataValue, -0.19999999999999998, -0.00011117600000000001
DataValue, -0.099999999999999992, -5.6256000000000005E-05
DataValue, 0, -3.92E-07
DataValue, 0.099999999999999992, 5.6361000000000005E-05
