
SetupTitle, Rds v Vtgs
PrimitiveTest, I/V Sweep
TestParameter, Context.MainFrame, B2902A
TestParameter, Channel.UnitType, SMU, SMU
TestParameter, Channel.Unit, SMU1:B290X, SMU2:B290X
TestParameter, Channel.IName, Itg, Id
TestParameter, Channel.VName, Vtgs, Vds
TestParameter, Channel.Mode, V, V
TestParameter, Channel.Func, VAR1, CONST
TestParameter, Channel.Index, 
TestParameter, Channel.Time, 
TestParameter, Measurement.Port.Unit, SMU1:B290X, SMU2:B290X
TestParameter, Measurement.Port.SeriesResistor, NONE, NONE
TestParameter, Measurement.Port.Filter, ON, ON
TestParameter, Measurement.Port.LowState, GROUNDED, GROUNDED
TestParameter, Measurement.Port.HighCapacitance, OFF, OFF
TestParameter, Measurement.Primary.Locus, Single
TestParameter, Measurement.Primary.Scale, LINEAR
TestParameter, Measurement.Primary.Start, -5
TestParameter, Measurement.Primary.Stop, 5
TestParameter, Measurement.Primary.Step, 0.1
TestParameter, Measurement.Primary.Compliance, 0.005
TestParameter, Measurement.Primary.PowerCompliance, 0
TestParameter, Measurement.Aborting.Condition, CONTINUE AT ANY
TestParameter, Measurement.PostOutput.Value, START
TestParameter, Measurement.PostOutput.Retention, OFF
TestParameter, Measurement.Bias.Source, -5, 0.02
TestParameter, Measurement.Bias.Compliance, 0.005, 0.005
TestParameter, Measurement.Monitor.Unit, SMU1:B290X, SMU2:B290X
TestParameter, Measurement.Monitor.Adc, HS ADC, HS ADC
TestParameter, Measurement.Monitor.RangingMode, LIMITED, LIMITED
TestParameter, Measurement.Monitor.RangeBoundary, 1mA, 1mA
TestParameter, Measurement.Monitor.RangeRating, BY FULL RANGE, BY FULL RANGE
TestParameter, Measurement.Monitor.RangeRatingCoeff, 90, 90
TestParameter, Measurement.Timing.Hold, 0
TestParameter, Measurement.Timing.Delay, 0
TestParameter, Measurement.Adc.HighSpeed.Mode, AUTO
TestParameter, Measurement.Adc.HighSpeed.Coeff, 1
TestParameter, Measurement.WaitTime.Source.Coeff, 1
TestParameter, Measurement.WaitTime.Source.Offset, 0
TestParameter, Measurement.WaitTime.Source.State, ON
TestParameter, Measurement.WaitTime.Monitor.Coeff, 1
TestParameter, Measurement.WaitTime.Monitor.Offset, 0
TestParameter, Measurement.WaitTime.Monitor.State, ON
TestParameter, Measurement.Ag16440ASelector.SemiconductorRelay.Channel1, DEFAULT
TestParameter, Measurement.Ag16440ASelector.SemiconductorRelay.Channel3, DEFAULT
TestParameter, Function.User.Name, R
TestParameter, Function.User.Unit, ohm
TestParameter, Function.User.Definition, Vds/Id
TestParameter, Output.Graph.Enabled, true
TestParameter, Output.Graph.AutoScaling, false
TestParameter, Output.Graph.XAxis.Data, Vtgs
TestParameter, Output.Graph.XAxis.Scale, Linear
TestParameter, Output.Graph.XAxis.Left, -5
TestParameter, Output.Graph.XAxis.Right, 5
TestParameter, Output.Graph.XAxis.RunTimeAutoScale, false
TestParameter, Output.Graph.YAxis.Data, R
TestParameter, Output.Graph.YAxis.Scale, Linear
TestParameter, Output.Graph.YAxis.Bottom, 0
TestParameter, Output.Graph.YAxis.Top, 5000
TestParameter, Output.Graph.YAxis.Group, 
TestParameter, Output.Graph.YAxis.RunTimeAutoScale, true
TestParameter, AutoAnalysis.Interpolation, false
TestParameter, AutoAnalysis.Line1.Enabled, false
TestParameter, AutoAnalysis.Line1.Type, 1
TestParameter, AutoAnalysis.Line1.Fix, True
TestParameter, AutoAnalysis.Line1.YAxis, 0
TestParameter, AutoAnalysis.Line1.Point1.Type, 0
TestParameter, AutoAnalysis.Line1.Point1.XY.X, 
TestParameter, AutoAnalysis.Line1.Point1.XY.Y, 
TestParameter, AutoAnalysis.Line1.Point1.Data.Var, 
TestParameter, AutoAnalysis.Line1.Point1.Data.Condition, 
TestParameter, AutoAnalysis.Line1.Point1.Data.Start, false
TestParameter, AutoAnalysis.Line1.Point1.Data.StartVar, 
TestParameter, AutoAnalysis.Line1.Point1.Data.StartCondition, 
TestParameter, AutoAnalysis.Line1.Point2.Type, 0
TestParameter, AutoAnalysis.Line1.Point2.XY.X, 
TestParameter, AutoAnalysis.Line1.Point2.XY.Y, 
TestParameter, AutoAnalysis.Line1.Point2.Data.Var, 
TestParameter, AutoAnalysis.Line1.Point2.Data.Condition, 
TestParameter, AutoAnalysis.Line1.Point2.Data.Start, false
TestParameter, AutoAnalysis.Line1.Point2.Data.StartVar, 
TestParameter, AutoAnalysis.Line1.Point2.Data.StartCondition, 
TestParameter, AutoAnalysis.Line1.GradientExpr, 0
TestParameter, AutoAnalysis.Line2.Enabled, false
TestParameter, AutoAnalysis.Line2.Type, 1
TestParameter, AutoAnalysis.Line2.Fix, True
TestParameter, AutoAnalysis.Line2.YAxis, 0
TestParameter, AutoAnalysis.Line2.Point1.Type, 0
TestParameter, AutoAnalysis.Line2.Point1.XY.X, 
TestParameter, AutoAnalysis.Line2.Point1.XY.Y, 
TestParameter, AutoAnalysis.Line2.Point1.Data.Var, 
TestParameter, AutoAnalysis.Line2.Point1.Data.Condition, 
TestParameter, AutoAnalysis.Line2.Point1.Data.Start, false
TestParameter, AutoAnalysis.Line2.Point1.Data.StartVar, 
TestParameter, AutoAnalysis.Line2.Point1.Data.StartCondition, 
TestParameter, AutoAnalysis.Line2.Point2.Type, 0
TestParameter, AutoAnalysis.Line2.Point2.XY.X, 
TestParameter, AutoAnalysis.Line2.Point2.XY.Y, 
TestParameter, AutoAnalysis.Line2.Point2.Data.Var, 
TestParameter, AutoAnalysis.Line2.Point2.Data.Condition, 
TestParameter, AutoAnalysis.Line2.Point2.Data.Start, false
TestParameter, AutoAnalysis.Line2.Point2.Data.StartVar, 
TestParameter, AutoAnalysis.Line2.Point2.Data.StartCondition, 
TestParameter, AutoAnalysis.Line2.GradientExpr, 0
TestParameter, AutoAnalysis.Marker.Enabled, false
TestParameter, AutoAnalysis.Marker.Data.Var, 
TestParameter, AutoAnalysis.Marker.Data.Condition, 
TestParameter, AutoAnalysis.Marker.Data.Start, false
TestParameter, AutoAnalysis.Marker.Data.StartVar, 
TestParameter, AutoAnalysis.Marker.Data.StartCondition, 
MetaData, TestRecord.EntryPoint, true
MetaData, TestRecord.RecordTime, 07/21/2023 17:46:00
MetaData, TestRecord.TestTarget, 
MetaData, TestRecord.IterationIndex, 1
MetaData, TestRecord.Preservation, true
MetaData, TestRecord.Flag, 
MetaData, TestRecord.Remarks, 
MetaData, TestRecord.LinkKey, 0f5ddcde-7315-4212-8f0d-692b10600690
Dimension1, 101, 101, 101, 101
Dimension2, 1, 1, 1, 1
DataName, Vtgs, Vds, Id, R
DataValue, -5, 0.02, 1.3746E-05, 1454.9687181725592
DataValue, -4.9, 0.02, 1.3689E-05, 1461.027102052743
DataValue, -4.8000000000000007, 0.02, 1.3630000000000002E-05, 1467.3514306676448
DataValue, -4.7, 0.02, 1.3571000000000001E-05, 1473.730749392086
DataValue, -4.6000000000000005, 0.02, 1.3516E-05, 1479.7277300976621
DataValue, -4.5, 0.02, 1.3449000000000001E-05, 1487.099412595732
DataValue, -4.4, 0.02, 1.3395000000000001E-05, 1493.0944382232176
DataValue, -4.3000000000000007, 0.02, 1.3328E-05, 1500.6002400960385
DataValue, -4.2, 0.02, 1.3267E-05, 1507.4998115625235
DataValue, -4.1000000000000005, 0.02, 1.3205000000000002E-05, 1514.5778114350624
DataValue, -4, 0.02, 1.3132E-05, 1522.9972586049344
DataValue, -3.9000000000000004, 0.02, 1.3065000000000001E-05, 1530.8075009567547
DataValue, -3.8000000000000003, 0.02, 1.2991000000000002E-05, 1539.5273650989145
DataValue, -3.7, 0.02, 1.2929000000000001E-05, 1546.9100471807562
DataValue, -3.6, 0.02, 1.2849E-05, 1556.5413650867772
DataValue, -3.5000000000000004, 0.02, 1.2769000000000001E-05, 1566.2933667475918
DataValue, -3.4000000000000004, 0.02, 1.2691000000000001E-05, 1575.919943266882
DataValue, -3.3000000000000003, 0.02, 1.2601E-05, 1587.1756209824616
DataValue, -3.2, 0.02, 1.2523E-05, 1597.0614070110996
DataValue, -3.1, 0.02, 1.2433000000000001E-05, 1608.6222150727901
DataValue, -3.0000000000000004, 0.02, 1.2341000000000001E-05, 1620.614212786646
DataValue, -2.9000000000000004, 0.02, 1.2244E-05, 1633.4531198954589
DataValue, -2.8000000000000003, 0.02, 1.214E-05, 1647.4464579901153
DataValue, -2.7, 0.02, 1.2043000000000001E-05, 1660.7157684962217
DataValue, -2.6, 0.02, 1.1934000000000001E-05, 1675.8840288252052
DataValue, -2.5, 0.02, 1.1823E-05, 1691.6180326482281
DataValue, -2.4000000000000004, 0.02, 1.1705E-05, 1708.6715079026058
DataValue, -2.3000000000000003, 0.02, 1.1585E-05, 1726.3703064307294
DataValue, -2.2, 0.02, 1.1463E-05, 1744.7439588240425
DataValue, -2.1, 0.02, 1.1334E-05, 1764.602082230457
DataValue, -2, 0.02, 1.1201E-05, 1785.5548611731097
DataValue, -1.9, 0.02, 1.1048E-05, 1810.2824040550327
DataValue, -1.7999999999999998, 0.02, 1.0897000000000001E-05, 1835.3675323483526
DataValue, -1.7, 0.02, 1.0741000000000001E-05, 1862.0240201098593
DataValue, -1.5999999999999999, 0.02, 1.0576E-05, 1891.0741301059002
DataValue, -1.5, 0.02, 1.0405000000000001E-05, 1922.1528111484861
DataValue, -1.4, 0.02, 1.0218000000000001E-05, 1957.3302016050106
DataValue, -1.3, 0.02, 1.0025000000000001E-05, 1995.01246882793
DataValue, -1.2, 0.02, 9.8240000000000011E-06, 2035.830618892508
DataValue, -1.0999999999999999, 0.02, 9.6170000000000013E-06, 2079.6506186960587
DataValue, -1, 0.02, 9.402E-06, 2127.2069772388854
DataValue, -0.89999999999999991, 0.02, 9.174E-06, 2180.0741225201655
DataValue, -0.79999999999999993, 0.02, 8.935E-06, 2238.3883603805261
DataValue, -0.7, 0.02, 8.687E-06, 2302.290779325429
DataValue, -0.6, 0.02, 8.43E-06, 2372.4792408066428
DataValue, -0.5, 0.02, 8.1690000000000009E-06, 2448.2800832415228
DataValue, -0.39999999999999997, 0.02, 7.889E-06, 2535.1755609075926
DataValue, -0.3, 0.02, 7.6080000000000007E-06, 2628.8117770767612
DataValue, -0.19999999999999998, 0.02, 7.3230000000000009E-06, 2731.1211252219032
DataValue, -0.099999999999999992, 0.02, 7.031E-06, 2844.5455838429812
DataValue, 0, 0.02, 6.741E-06, 2966.918854769322
DataValue, 0.099999999999999992, 0.02, 6.455E-06, 3098.3733539891559
DataValue, 0.19999999999999998, 0.02, 6.177E-06, 3237.8177108628784
DataValue, 0.3, 0.02, 5.912E-06, 3382.9499323410014
DataValue, 0.39999999999999997, 0.02, 5.66E-06, 3533.5689045936397
DataValue, 0.5, 0.02, 5.4320000000000007E-06, 3681.8851251840938
DataValue, 0.6, 0.02, 5.222E-06, 3829.9502106472614
DataValue, 0.7, 0.02, 5.0380000000000007E-06, 3969.829297340214
DataValue, 0.79999999999999993, 0.02, 4.8710000000000005E-06, 4105.9330732909048
DataValue, 0.89999999999999991, 0.02, 4.733E-06, 4225.6496936403973
DataValue, 1, 0.02, 4.614E-06, 4334.6337234503681
DataValue, 1.0999999999999999, 0.02, 4.5160000000000005E-06, 4428.6979627989367
DataValue, 1.2, 0.02, 4.439E-06, 4505.5192610948407
DataValue, 1.3, 0.02, 4.378E-06, 4568.2960255824573
DataValue, 1.4, 0.02, 4.332E-06, 4616.8051708217909
DataValue, 1.5, 0.02, 4.3E-06, 4651.1627906976737
DataValue, 1.5999999999999999, 0.02, 4.283E-06, 4669.6240952603312
DataValue, 1.7, 0.02, 4.2800000000000005E-06, 4672.8971962616815
DataValue, 1.7999999999999998, 0.02, 4.294E-06, 4657.6618537494178
DataValue, 1.9, 0.02, 4.3210000000000006E-06, 4628.5582041194166
DataValue, 2, 0.02, 4.362E-06, 4585.0527281063733
DataValue, 2.1, 0.02, 4.4140000000000004E-06, 4531.0376076121429
DataValue, 2.2, 0.02, 4.4820000000000005E-06, 4462.2936189201246
DataValue, 2.3000000000000003, 0.02, 4.563E-06, 4383.0813061582294
DataValue, 2.4000000000000004, 0.02, 4.661E-06, 4290.9246942716154
DataValue, 2.5, 0.02, 4.7660000000000006E-06, 4196.39110365086
DataValue, 2.6, 0.02, 4.8830000000000005E-06, 4095.8427196395655
DataValue, 2.7, 0.02, 5.01E-06, 3992.0159680638722
DataValue, 2.8000000000000003, 0.02, 5.139E-06, 3891.8077446974116
DataValue, 2.9000000000000004, 0.02, 5.283E-06, 3785.7278061707361
DataValue, 3.0000000000000004, 0.02, 5.429E-06, 3683.9196905507461
DataValue, 3.1, 0.02, 5.575E-06, 3587.4439461883408
DataValue, 3.2, 0.02, 5.7310000000000007E-06, 3489.7923573547369
DataValue, 3.3000000000000003, 0.02, 5.8820000000000006E-06, 3400.2040122407343
DataValue, 3.4000000000000004, 0.02, 6.0380000000000005E-06, 3312.3550844650545
DataValue, 3.5000000000000004, 0.02, 6.19E-06, 3231.0177705977385
DataValue, 3.6, 0.02, 6.343E-06, 3153.0821377896896
DataValue, 3.7, 0.02, 6.496E-06, 3078.8177339901476
DataValue, 3.8000000000000003, 0.02, 6.644E-06, 3010.2347983142686
DataValue, 3.9000000000000004, 0.02, 6.795E-06, 2943.3406916850627
DataValue, 4, 0.02, 6.9320000000000007E-06, 2885.1702250432772
DataValue, 4.1000000000000005, 0.02, 7.074E-06, 2827.254735651682
DataValue, 4.2, 0.02, 7.211E-06, 2773.540424351685
DataValue, 4.3000000000000007, 0.02, 7.347E-06, 2722.1995372260785
DataValue, 4.4, 0.02, 7.48E-06, 2673.79679144385
DataValue, 4.5, 0.02, 7.6050000000000009E-06, 2629.8487836949371
DataValue, 4.6000000000000005, 0.02, 7.725E-06, 2588.9967637540453
DataValue, 4.7, 0.02, 7.8470000000000013E-06, 2548.7447432139666
DataValue, 4.8000000000000007, 0.02, 7.965E-06, 2510.9855618330193
DataValue, 4.9, 0.02, 8.076E-06, 2476.4735017335315
DataValue, 5, 0.02, 8.187E-06, 2442.8972761695372